
T375C 000:801 SEGGER J-Link V4.36l Log File (0000ms, 0799ms total)
T375C 000:801 DLL Compiled: Dec  2 2011 18:52:36 (0000ms, 0799ms total)
T375C 000:801 Logging started @ 2013-11-30 21:21 (0000ms, 0799ms total)
T375C 000:802 JLINK_SetWarnOutHandler(...) (0000ms, 0799ms total)
T375C 000:802 JLINK_OpenEx(...)
Firmware: J-Link ARM-OB STM32 compiled Aug 22 2012 19:52:04
Hardware: V7.00
S/N: 20090928
Feature(s): RDI,FlashDL,FlashBP,JFlash,GDBFull  returns O.K. (0367ms, 0799ms total)
T375C 001:169 JLINK_SetErrorOutHandler(...) (0000ms, 1166ms total)
T375C 001:170 JLINK_ExecCommand("Device = STM32F405RG", ...)
                JLINK_ExecCommand("map ram 0x20000000 - 0x2001FFFF", ...)  returns 0x00 (0000ms, 0001ms total)
                JLINK_AddMirrorAreaEx(Addr = 0x00000000, Size = 0x00000000) (0000ms, 0001ms total)
              Device "STM32F405RG" selected (1024 KB flash, 128 KB RAM).  returns 0x00 (0013ms, 1166ms total)
T375C 001:185 JLINK_ExecCommand("ProjectFile = "C:\Users\071Lab\Documents\GitHub\QuadrotorFlightControl\Program\ProjectFC\JLinkSettings.ini"", ...)  returns 0x00 (0001ms, 1179ms total)
T375C 001:194 JLINK_ExecCommand("DisableConnectionTimeout", ...)  returns 0x00 (0000ms, 1180ms total)
T375C 001:194 JLINK_TIF_Select(JLINKARM_TIF_SWD)  returns 0x00 (0003ms, 1180ms total)
T375C 001:197 JLINK_SetSpeed(10000) (0000ms, 1183ms total)
T375C 001:197 JLINK_GetHardwareVersion()  returns 0x11170 (0000ms, 1183ms total)
T375C 001:197 JLINK_GetDLLVersion()  returns 43612 (0001ms, 1183ms total)
T375C 001:198 JLINK_GetFirmwareString(...) (0000ms, 1184ms total)
T375C 001:219 JLINK_GetDLLVersion()  returns 43612 (0000ms, 1184ms total)
T375C 001:219 JLINK_GetCompileDateTime() (0000ms, 1184ms total)
T375C 001:228 JLINK_GetFirmwareString(...) (0000ms, 1184ms total)
T375C 001:233 JLINK_GetHardwareVersion()  returns 0x11170 (0000ms, 1184ms total)
T375C 001:248 JLINK_GetId() >0x108 TIF>Found SWD-DP with ID 0x2BA01477 >0x33 TIF> >0x33 TIF> >0x35 TIF> >0x33 TIF> >0x35 TIF> >0x33 TIF> >0x33 TIF> >0x35 TIF> >0x33 TIF> >0x33 TIF> >0x35 TIF> >0x33 TIF> >0x33 TIF> >0x35 TIF> >0x33 TIF> >0x33 TIF> >0x35 TIF> >0x35 TIF> >0x35 TIF> >0x35 TIF> >0x35 TIF> >0x33 TIF> >0x33 TIF> >0x35 TIF> >0x33 TIF> >0x33 TIF> >0x33 TIF>TPIU fitted.ETM fitted. >0x35 TIF> >0x33 TIF> >0x33 TIF> >0x35 TIF> >0x33 TIF> >0x33 TIF>  FPUnit: 6 code (BP) slots and 2 literal slots
 >0x35 TIF> >0x33 TIF> >0x33 TIF> >0x35 TIF> >0x35 TIF> >0x35 TIF> >0x33 TIF> >0x33 TIF> >0x35 TIF> >0x33 TIF> >0x33 TIF> >0x35 TIF> >0x33 TIF> >0x33 TIF>Found Cortex-M4 r0p1, Little endian. >0x33 TIF>  returns 0x2BA01477 (0065ms, 1184ms total)
T375C 001:314 JLINK_GetDebugInfo(0x100) -- Value=0xE00FF003  returns 0x00 (0000ms, 1249ms total)
T375C 001:328 JLINK_ReadMem (0xE00FFFF0, 0x0010 Bytes, ...) -- CPU is running -- CPU_ReadMem(16 bytes @ 0xE00FFFF0) -- Data:  0D 00 00 00 10 00 00 00 05 00 00 00 B1 00 00 00  returns 0x00 (0002ms, 1249ms total)
T375C 001:330 JLINK_ReadMem (0xE00FFFD0, 0x0020 Bytes, ...) -- CPU is running -- CPU_ReadMem(32 bytes @ 0xE00FFFD0) -- Data:  00 00 00 00 00 00 00 00 00 00 00 00 00 00 00 00 ...  returns 0x00 (0002ms, 1251ms total)
T375C 001:332 JLINK_ReadMem (0xE00FF000, 0x0018 Bytes, ...) -- CPU is running -- CPU_ReadMem(24 bytes @ 0xE00FF000) -- Data:  03 F0 F0 FF 03 20 F0 FF 03 30 F0 FF 03 10 F0 FF ...  returns 0x00 (0001ms, 1253ms total)
T375C 001:333 JLINK_ReadMemU32(0xE000ED00, 0x0001 Items, ...) -- CPU is running -- CPU_ReadMem(4 bytes @ 0xE000ED00) -- Data:  41 C2 0F 41  returns 0x01 (0001ms, 1254ms total)
T375C 001:334 JLINK_ReadMemU32(0xE000EF40, 0x0001 Items, ...) -- CPU is running -- CPU_ReadMem(4 bytes @ 0xE000EF40) -- Data:  21 00 11 10  returns 0x01 (0002ms, 1255ms total)
T375C 001:336 JLINK_ReadMemU32(0xE000EF44, 0x0001 Items, ...) -- CPU is running -- CPU_ReadMem(4 bytes @ 0xE000EF44) -- Data:  11 00 00 11  returns 0x01 (0001ms, 1257ms total)
T375C 001:337 JLINK_SetResetType(JLINKARM_RESET_TYPE_NORMAL)  returns JLINKARM_RESET_TYPE_NORMAL (0000ms, 1258ms total)
T375C 001:337 JLINK_Reset() >0x108 TIF>Found SWD-DP with ID 0x2BA01477 >0x33 TIF> >0x33 TIF> >0x35 TIF> >0x33 TIF> >0x35 TIF> >0x33 TIF> >0x33 TIF> >0x35 TIF> >0x33 TIF> >0x33 TIF> >0x35 TIF> >0x33 TIF> >0x33 TIF> >0x35 TIF> >0x33 TIF> >0x33 TIF> >0x35 TIF> >0x35 TIF> >0x35 TIF> >0x35 TIF> >0x35 TIF> >0x33 TIF> >0x33 TIF> >0x35 TIF> >0x33 TIF> >0x33 TIF> >0x33 TIF>TPIU fitted.ETM fitted. >0x35 TIF> >0x33 TIF> >0x33 TIF> >0x35 TIF> >0x33 TIF> >0x33 TIF>  FPUnit: 6 code (BP) slots and 2 literal slots
 >0x35 TIF> >0x33 TIF> >0x33 TIF> >0x35 TIF> >0x33 TIF> >0x33 TIF> >0x35 TIF> >0x33 TIF> >0x33 TIF> >0x35 TIF> >0x33 TIF> >0x33 TIF>Found Cortex-M4 r0p1, Little endian. -- CPU is running -- CPU_WriteMem(4 bytes @ 0xE000EDF0) -- CPU is running -- CPU_WriteMem(4 bytes @ 0xE000EDFC) >0x35 TIF> -- CPU is running -- CPU_WriteMem(4 bytes @ 0xE000ED0C) -- CPU is running -- CPU_ReadMem(4 bytes @ 0xE000EDF0) -- CPU is running -- CPU_ReadMem(4 bytes @ 0xE000EDF0) -- CPU is running
 -- CPU_WriteMem(4 bytes @ 0xE000EDF0) -- CPU is running -- CPU_WriteMem(4 bytes @ 0xE000EDFC) -- CPU is running -- CPU_ReadMem(4 bytes @ 0xE000EDF0) (0085ms, 1258ms total)
T375C 001:422 JLINK_Halt()  returns 0x00 (0000ms, 1343ms total)
T375C 001:422 JLINK_IsHalted()  returns TRUE (0000ms, 1343ms total)
T375C 001:422 JLINK_ReadMemU32(0xE000EDF0, 0x0001 Items, ...) -- CPU_ReadMem(4 bytes @ 0xE000EDF0) -- Data:  03 00 03 00  returns 0x01 (0002ms, 1343ms total)
T375C 001:424 JLINK_WriteU32(0xE000EDF0, 0xA05F0003) -- CPU_WriteMem(4 bytes @ 0xE000EDF0)  returns 0x00 (0001ms, 1345ms total)
T375C 001:425 JLINK_WriteU32(0xE000EDFC, 0x01000000) -- CPU_WriteMem(4 bytes @ 0xE000EDFC)  returns 0x00 (0001ms, 1346ms total)
T375C 001:453 JLINK_GetHWStatus(...)  returns 0x00 (0001ms, 1347ms total)
T375C 001:466 JLINK_GetNumBPUnits(Type = 0xFFFFFF00)  returns 0x06 (0000ms, 1348ms total)
T375C 001:466 JLINK_GetNumBPUnits(Type = 0xF0)  returns 0x2000 (0000ms, 1348ms total)
T375C 001:466 JLINK_GetNumWPUnits()  returns 0x04 (0000ms, 1348ms total)
T375C 001:482 JLINK_GetSpeed()  returns 0xFA0 (0000ms, 1348ms total)
T375C 001:494 JLINK_ReadMemU32(0xE000E004, 0x0001 Items, ...) -- CPU_ReadMem(4 bytes @ 0xE000E004) -- Data:  02 00 00 00  returns 0x01 (0001ms, 1349ms total)
T375C 001:495 JLINK_ReadMemU32(0xE000E004, 0x0001 Items, ...) -- CPU_ReadMem(4 bytes @ 0xE000E004) -- Data:  02 00 00 00  returns 0x01 (0001ms, 1350ms total)
T375C 001:496 JLINK_WriteMem(0xE0001000, 0x001C Bytes, ...) -- Data:  01 00 00 00 00 00 00 00 00 00 00 00 00 00 00 00 ... -- CPU_WriteMem(28 bytes @ 0xE0001000)  returns 0x1C (0002ms, 1351ms total)
T375C 001:498 JLINK_ReadMem (0xE0001000, 0x001C Bytes, ...) -- CPU_ReadMem(28 bytes @ 0xE0001000) -- Data:  01 00 00 40 00 00 00 00 00 00 00 00 00 00 00 00 ...  returns 0x00 (0001ms, 1353ms total)
T375C 001:499 JLINK_Halt()  returns 0x00 (0000ms, 1354ms total)
T375C 001:499 JLINK_IsHalted()  returns TRUE (0000ms, 1354ms total)
T375C 001:506 JLINK_WriteMem(0x20000000, 0x0180 Bytes, ...) -- Data:  00 BE 0A E0 0D 78 2D 06 68 40 08 24 40 00 00 D3 ... -- CPU_WriteMem(384 bytes @ 0x20000000)  returns 0x180 (0006ms, 1354ms total)
T375C 001:512 JLINK_WriteReg(R0, 0x08000000)  returns 0x00 (0000ms, 1360ms total)
T375C 001:512 JLINK_WriteReg(R1, 0x007A1200)  returns 0x00 (0000ms, 1360ms total)
T375C 001:512 JLINK_WriteReg(R2, 0x00000001)  returns 0x00 (0001ms, 1360ms total)
T375C 001:513 JLINK_WriteReg(R3, 0x00000000)  returns 0x00 (0000ms, 1361ms total)
T375C 001:513 JLINK_WriteReg(R4, 0x00000000)  returns 0x00 (0000ms, 1361ms total)
T375C 001:513 JLINK_WriteReg(R5, 0x00000000)  returns 0x00 (0000ms, 1361ms total)
T375C 001:513 JLINK_WriteReg(R6, 0x00000000)  returns 0x00 (0000ms, 1361ms total)
T375C 001:513 JLINK_WriteReg(R7, 0x00000000)  returns 0x00 (0000ms, 1361ms total)
T375C 001:513 JLINK_WriteReg(R8, 0x00000000)  returns 0x00 (0000ms, 1361ms total)
T375C 001:513 JLINK_WriteReg(R9, 0x2000017C)  returns 0x00 (0000ms, 1361ms total)
T375C 001:513 JLINK_WriteReg(R10, 0x00000000)  returns 0x00 (0000ms, 1361ms total)
T375C 001:513 JLINK_WriteReg(R11, 0x00000000)  returns 0x00 (0000ms, 1361ms total)
T375C 001:513 JLINK_WriteReg(R12, 0x00000000)  returns 0x00 (0000ms, 1361ms total)
T375C 001:513 JLINK_WriteReg(R13, 0x20000800)  returns 0x00 (0001ms, 1361ms total)
T375C 001:514 JLINK_WriteReg(R14, 0x20000001)  returns 0x00 (0000ms, 1362ms total)
T375C 001:514 JLINK_WriteReg(R15, 0x20000054)  returns 0x00 (0000ms, 1362ms total)
T375C 001:514 JLINK_WriteReg(XPSR, 0x01000000)  returns 0x00 (0000ms, 1362ms total)
T375C 001:514 JLINK_WriteReg(MSP, 0x20000800)  returns 0x00 (0000ms, 1362ms total)
T375C 001:514 JLINK_WriteReg(PSP, 0x20000800)  returns 0x00 (0000ms, 1362ms total)
T375C 001:514 JLINK_WriteReg(CFBP, 0x00000000)  returns 0x00 (0000ms, 1362ms total)
T375C 001:514 JLINK_SetBPEx(Addr = 0x20000000, Type = 0xFFFFFFF2) -- CPU_ReadMem(2 bytes @ 0x20000000)  returns 0x00000001 (0001ms, 1362ms total)
T375C 001:515 JLINK_Go() -- CPU_WriteMem(2 bytes @ 0x20000000) -- CPU_WriteMem(4 bytes @ 0xE0002008) -- CPU_WriteMem(4 bytes @ 0xE000200C) -- CPU_WriteMem(4 bytes @ 0xE0002010) -- CPU_WriteMem(4 bytes @ 0xE0002014) -- CPU_WriteMem(4 bytes @ 0xE0002018) -- CPU_WriteMem(4 bytes @ 0xE000201C) (0011ms, 1363ms total)
T375C 001:526 JLINK_IsHalted() -- CPU_ReadMem(2 bytes @ 0x20000000)  returns TRUE (0006ms, 1374ms total)
T375C 001:532 JLINK_ReadReg(R15)  returns 0x20000000 (0000ms, 1374ms total)
T375C 001:532 JLINK_ClrBPEx(BPHandle = 0x00000001)  returns 0x00 (0000ms, 1374ms total)
T375C 001:532 JLINK_ReadReg(R0)  returns 0x00000000 (0001ms, 1374ms total)
T375C 001:540 JLINK_WriteReg(R0, 0x08000000)  returns 0x00 (0000ms, 1375ms total)
T375C 001:540 JLINK_WriteReg(R1, 0x00004000)  returns 0x00 (0000ms, 1375ms total)
T375C 001:540 JLINK_WriteReg(R2, 0x000000FF)  returns 0x00 (0001ms, 1375ms total)
T375C 001:541 JLINK_WriteReg(R3, 0x00000000)  returns 0x00 (0000ms, 1376ms total)
T375C 001:541 JLINK_WriteReg(R4, 0x00000000)  returns 0x00 (0000ms, 1376ms total)
T375C 001:541 JLINK_WriteReg(R5, 0x00000000)  returns 0x00 (0000ms, 1376ms total)
T375C 001:541 JLINK_WriteReg(R6, 0x00000000)  returns 0x00 (0000ms, 1376ms total)
T375C 001:541 JLINK_WriteReg(R7, 0x00000000)  returns 0x00 (0000ms, 1376ms total)
T375C 001:541 JLINK_WriteReg(R8, 0x00000000)  returns 0x00 (0000ms, 1376ms total)
T375C 001:541 JLINK_WriteReg(R9, 0x2000017C)  returns 0x00 (0000ms, 1376ms total)
T375C 001:541 JLINK_WriteReg(R10, 0x00000000)  returns 0x00 (0000ms, 1376ms total)
T375C 001:541 JLINK_WriteReg(R11, 0x00000000)  returns 0x00 (0000ms, 1376ms total)
T375C 001:541 JLINK_WriteReg(R12, 0x00000000)  returns 0x00 (0000ms, 1376ms total)
T375C 001:541 JLINK_WriteReg(R13, 0x20000800)  returns 0x00 (0000ms, 1376ms total)
T375C 001:541 JLINK_WriteReg(R14, 0x20000001)  returns 0x00 (0001ms, 1376ms total)
T375C 001:542 JLINK_WriteReg(R15, 0x20000020)  returns 0x00 (0000ms, 1377ms total)
T375C 001:542 JLINK_WriteReg(XPSR, 0x01000000)  returns 0x00 (0000ms, 1377ms total)
T375C 001:542 JLINK_WriteReg(MSP, 0x20000800)  returns 0x00 (0000ms, 1377ms total)
T375C 001:542 JLINK_WriteReg(PSP, 0x20000800)  returns 0x00 (0000ms, 1377ms total)
T375C 001:542 JLINK_WriteReg(CFBP, 0x00000000)  returns 0x00 (0000ms, 1377ms total)
T375C 001:542 JLINK_SetBPEx(Addr = 0x20000000, Type = 0xFFFFFFF2)  returns 0x00000002 (0000ms, 1377ms total)
T375C 001:542 JLINK_Go() -- CPU_WriteMem(4 bytes @ 0xE0002008) -- CPU_WriteMem(4 bytes @ 0xE000200C) -- CPU_WriteMem(4 bytes @ 0xE0002010) -- CPU_WriteMem(4 bytes @ 0xE0002014) -- CPU_WriteMem(4 bytes @ 0xE0002018) -- CPU_WriteMem(4 bytes @ 0xE000201C) (0010ms, 1377ms total)
T375C 001:552 JLINK_IsHalted() -- CPU_ReadMem(2 bytes @ 0x20000000)  returns TRUE (0006ms, 1387ms total)
T375C 001:558 JLINK_ReadReg(R15)  returns 0x20000000 (0000ms, 1387ms total)
T375C 001:558 JLINK_ClrBPEx(BPHandle = 0x00000002)  returns 0x00 (0000ms, 1387ms total)
T375C 001:558 JLINK_ReadReg(R0)  returns 0x00000001 (0000ms, 1387ms total)
T375C 001:558 JLINK_WriteReg(R0, 0x08000000)  returns 0x00 (0000ms, 1387ms total)
T375C 001:558 JLINK_WriteReg(R1, 0x00004000)  returns 0x00 (0000ms, 1387ms total)
T375C 001:558 JLINK_WriteReg(R2, 0x000000FF)  returns 0x00 (0000ms, 1387ms total)
T375C 001:558 JLINK_WriteReg(R3, 0x00000000)  returns 0x00 (0000ms, 1387ms total)
T375C 001:558 JLINK_WriteReg(R4, 0x00000000)  returns 0x00 (0000ms, 1387ms total)
T375C 001:559 JLINK_WriteReg(R5, 0x00000000)  returns 0x00 (0000ms, 1388ms total)
T375C 001:559 JLINK_WriteReg(R6, 0x00000000)  returns 0x00 (0000ms, 1388ms total)
T375C 001:559 JLINK_WriteReg(R7, 0x00000000)  returns 0x00 (0000ms, 1388ms total)
T375C 001:559 JLINK_WriteReg(R8, 0x00000000)  returns 0x00 (0000ms, 1388ms total)
T375C 001:559 JLINK_WriteReg(R9, 0x2000017C)  returns 0x00 (0000ms, 1388ms total)
T375C 001:559 JLINK_WriteReg(R10, 0x00000000)  returns 0x00 (0000ms, 1388ms total)
T375C 001:559 JLINK_WriteReg(R11, 0x00000000)  returns 0x00 (0000ms, 1388ms total)
T375C 001:559 JLINK_WriteReg(R12, 0x00000000)  returns 0x00 (0000ms, 1388ms total)
T375C 001:559 JLINK_WriteReg(R13, 0x20000800)  returns 0x00 (0000ms, 1388ms total)
T375C 001:559 JLINK_WriteReg(R14, 0x20000001)  returns 0x00 (0000ms, 1388ms total)
T375C 001:559 JLINK_WriteReg(R15, 0x200000BC)  returns 0x00 (0000ms, 1388ms total)
T375C 001:559 JLINK_WriteReg(XPSR, 0x01000000)  returns 0x00 (0001ms, 1388ms total)
T375C 001:560 JLINK_WriteReg(MSP, 0x20000800)  returns 0x00 (0000ms, 1389ms total)
T375C 001:560 JLINK_WriteReg(PSP, 0x20000800)  returns 0x00 (0000ms, 1389ms total)
T375C 001:560 JLINK_WriteReg(CFBP, 0x00000000)  returns 0x00 (0000ms, 1389ms total)
T375C 001:560 JLINK_SetBPEx(Addr = 0x20000000, Type = 0xFFFFFFF2)  returns 0x00000003 (0000ms, 1389ms total)
T375C 001:560 JLINK_Go() -- CPU_WriteMem(4 bytes @ 0xE0002008) -- CPU_WriteMem(4 bytes @ 0xE000200C) -- CPU_WriteMem(4 bytes @ 0xE0002010) -- CPU_WriteMem(4 bytes @ 0xE0002014) -- CPU_WriteMem(4 bytes @ 0xE0002018) -- CPU_WriteMem(4 bytes @ 0xE000201C) (0009ms, 1389ms total)
T375C 001:569 JLINK_IsHalted()  returns FALSE (0001ms, 1398ms total)
T375C 001:620 JLINK_IsHalted()  returns FALSE (0001ms, 1398ms total)
T375C 001:671 JLINK_IsHalted()  returns FALSE (0001ms, 1398ms total)
T375C 001:722 JLINK_IsHalted()  returns FALSE (0001ms, 1398ms total)
T375C 001:773 JLINK_IsHalted()  returns FALSE (0001ms, 1398ms total)
T375C 001:824 JLINK_IsHalted()  returns FALSE (0001ms, 1398ms total)
T375C 001:875 JLINK_IsHalted()  returns FALSE (0001ms, 1398ms total)
T375C 001:926 JLINK_IsHalted()  returns FALSE (0001ms, 1398ms total)
T375C 001:977 JLINK_IsHalted() -- CPU_ReadMem(2 bytes @ 0x20000000)  returns TRUE (0005ms, 1398ms total)
T375C 001:982 JLINK_ReadReg(R15)  returns 0x20000000 (0000ms, 1398ms total)
T375C 001:982 JLINK_ClrBPEx(BPHandle = 0x00000003)  returns 0x00 (0000ms, 1398ms total)
T375C 001:982 JLINK_ReadReg(R0)  returns 0x00000000 (0000ms, 1398ms total)
T375C 001:984 JLINK_WriteReg(R0, 0x08004000)  returns 0x00 (0000ms, 1399ms total)
T375C 001:984 JLINK_WriteReg(R1, 0x00004000)  returns 0x00 (0000ms, 1399ms total)
T375C 001:984 JLINK_WriteReg(R2, 0x000000FF)  returns 0x00 (0000ms, 1399ms total)
T375C 001:984 JLINK_WriteReg(R3, 0x00000000)  returns 0x00 (0000ms, 1399ms total)
T375C 001:984 JLINK_WriteReg(R4, 0x00000000)  returns 0x00 (0000ms, 1399ms total)
T375C 001:984 JLINK_WriteReg(R5, 0x00000000)  returns 0x00 (0000ms, 1399ms total)
T375C 001:984 JLINK_WriteReg(R6, 0x00000000)  returns 0x00 (0000ms, 1399ms total)
T375C 001:984 JLINK_WriteReg(R7, 0x00000000)  returns 0x00 (0000ms, 1399ms total)
T375C 001:984 JLINK_WriteReg(R8, 0x00000000)  returns 0x00 (0001ms, 1399ms total)
T375C 001:985 JLINK_WriteReg(R9, 0x2000017C)  returns 0x00 (0000ms, 1400ms total)
T375C 001:985 JLINK_WriteReg(R10, 0x00000000)  returns 0x00 (0000ms, 1400ms total)
T375C 001:985 JLINK_WriteReg(R11, 0x00000000)  returns 0x00 (0000ms, 1400ms total)
T375C 001:985 JLINK_WriteReg(R12, 0x00000000)  returns 0x00 (0000ms, 1400ms total)
T375C 001:985 JLINK_WriteReg(R13, 0x20000800)  returns 0x00 (0000ms, 1400ms total)
T375C 001:985 JLINK_WriteReg(R14, 0x20000001)  returns 0x00 (0000ms, 1400ms total)
T375C 001:985 JLINK_WriteReg(R15, 0x20000020)  returns 0x00 (0000ms, 1400ms total)
T375C 001:985 JLINK_WriteReg(XPSR, 0x01000000)  returns 0x00 (0001ms, 1400ms total)
T375C 001:986 JLINK_WriteReg(MSP, 0x20000800)  returns 0x00 (0000ms, 1401ms total)
T375C 001:986 JLINK_WriteReg(PSP, 0x20000800)  returns 0x00 (0000ms, 1401ms total)
T375C 001:986 JLINK_WriteReg(CFBP, 0x00000000)  returns 0x00 (0000ms, 1401ms total)
T375C 001:986 JLINK_SetBPEx(Addr = 0x20000000, Type = 0xFFFFFFF2)  returns 0x00000004 (0000ms, 1401ms total)
T375C 001:986 JLINK_Go() -- CPU_WriteMem(4 bytes @ 0xE0002008) -- CPU_WriteMem(4 bytes @ 0xE000200C) -- CPU_WriteMem(4 bytes @ 0xE0002010) -- CPU_WriteMem(4 bytes @ 0xE0002014) -- CPU_WriteMem(4 bytes @ 0xE0002018) -- CPU_WriteMem(4 bytes @ 0xE000201C) (0009ms, 1401ms total)
T375C 001:995 JLINK_IsHalted() -- CPU_ReadMem(2 bytes @ 0x20000000)  returns TRUE (0006ms, 1410ms total)
T375C 002:001 JLINK_ReadReg(R15)  returns 0x20000000 (0000ms, 1410ms total)
T375C 002:001 JLINK_ClrBPEx(BPHandle = 0x00000004)  returns 0x00 (0000ms, 1410ms total)
T375C 002:001 JLINK_ReadReg(R0)  returns 0x00000001 (0000ms, 1410ms total)
T375C 002:001 JLINK_WriteReg(R0, 0x08004000)  returns 0x00 (0000ms, 1410ms total)
T375C 002:001 JLINK_WriteReg(R1, 0x00004000)  returns 0x00 (0000ms, 1410ms total)
T375C 002:001 JLINK_WriteReg(R2, 0x000000FF)  returns 0x00 (0000ms, 1410ms total)
T375C 002:001 JLINK_WriteReg(R3, 0x00000000)  returns 0x00 (0000ms, 1410ms total)
T375C 002:001 JLINK_WriteReg(R4, 0x00000000)  returns 0x00 (0000ms, 1410ms total)
T375C 002:001 JLINK_WriteReg(R5, 0x00000000)  returns 0x00 (0000ms, 1410ms total)
T375C 002:001 JLINK_WriteReg(R6, 0x00000000)  returns 0x00 (0001ms, 1410ms total)
T375C 002:002 JLINK_WriteReg(R7, 0x00000000)  returns 0x00 (0000ms, 1411ms total)
T375C 002:002 JLINK_WriteReg(R8, 0x00000000)  returns 0x00 (0000ms, 1411ms total)
T375C 002:002 JLINK_WriteReg(R9, 0x2000017C)  returns 0x00 (0000ms, 1411ms total)
T375C 002:002 JLINK_WriteReg(R10, 0x00000000)  returns 0x00 (0000ms, 1411ms total)
T375C 002:002 JLINK_WriteReg(R11, 0x00000000)  returns 0x00 (0000ms, 1411ms total)
T375C 002:002 JLINK_WriteReg(R12, 0x00000000)  returns 0x00 (0000ms, 1411ms total)
T375C 002:002 JLINK_WriteReg(R13, 0x20000800)  returns 0x00 (0000ms, 1411ms total)
T375C 002:002 JLINK_WriteReg(R14, 0x20000001)  returns 0x00 (0000ms, 1411ms total)
T375C 002:002 JLINK_WriteReg(R15, 0x200000BC)  returns 0x00 (0000ms, 1411ms total)
T375C 002:002 JLINK_WriteReg(XPSR, 0x01000000)  returns 0x00 (0000ms, 1411ms total)
T375C 002:003 JLINK_WriteReg(MSP, 0x20000800)  returns 0x00 (0000ms, 1412ms total)
T375C 002:003 JLINK_WriteReg(PSP, 0x20000800)  returns 0x00 (0000ms, 1412ms total)
T375C 002:003 JLINK_WriteReg(CFBP, 0x00000000)  returns 0x00 (0000ms, 1412ms total)
T375C 002:003 JLINK_SetBPEx(Addr = 0x20000000, Type = 0xFFFFFFF2)  returns 0x00000005 (0000ms, 1412ms total)
T375C 002:003 JLINK_Go() -- CPU_WriteMem(4 bytes @ 0xE0002008) -- CPU_WriteMem(4 bytes @ 0xE000200C) -- CPU_WriteMem(4 bytes @ 0xE0002010) -- CPU_WriteMem(4 bytes @ 0xE0002014) -- CPU_WriteMem(4 bytes @ 0xE0002018) -- CPU_WriteMem(4 bytes @ 0xE000201C) (0009ms, 1412ms total)
T375C 002:012 JLINK_IsHalted()  returns FALSE (0001ms, 1421ms total)
T375C 002:063 JLINK_IsHalted()  returns FALSE (0001ms, 1421ms total)
T375C 002:114 JLINK_IsHalted()  returns FALSE (0001ms, 1421ms total)
T375C 002:165 JLINK_IsHalted()  returns FALSE (0001ms, 1421ms total)
T375C 002:216 JLINK_IsHalted()  returns FALSE (0001ms, 1421ms total)
T375C 002:267 JLINK_IsHalted()  returns FALSE (0001ms, 1421ms total)
T375C 002:318 JLINK_IsHalted()  returns FALSE (0001ms, 1421ms total)
T375C 002:369 JLINK_IsHalted()  returns FALSE (0001ms, 1421ms total)
T375C 002:420 JLINK_IsHalted() -- CPU_ReadMem(2 bytes @ 0x20000000)  returns TRUE (0005ms, 1421ms total)
T375C 002:425 JLINK_ReadReg(R15)  returns 0x20000000 (0000ms, 1421ms total)
T375C 002:425 JLINK_ClrBPEx(BPHandle = 0x00000005)  returns 0x00 (0000ms, 1421ms total)
T375C 002:425 JLINK_ReadReg(R0)  returns 0x00000000 (0000ms, 1421ms total)
T375C 002:426 JLINK_WriteReg(R0, 0x00000001)  returns 0x00 (0000ms, 1422ms total)
T375C 002:427 JLINK_WriteReg(R1, 0x00004000)  returns 0x00 (0000ms, 1423ms total)
T375C 002:427 JLINK_WriteReg(R2, 0x000000FF)  returns 0x00 (0000ms, 1423ms total)
T375C 002:427 JLINK_WriteReg(R3, 0x00000000)  returns 0x00 (0000ms, 1423ms total)
T375C 002:427 JLINK_WriteReg(R4, 0x00000000)  returns 0x00 (0000ms, 1423ms total)
T375C 002:427 JLINK_WriteReg(R5, 0x00000000)  returns 0x00 (0000ms, 1423ms total)
T375C 002:427 JLINK_WriteReg(R6, 0x00000000)  returns 0x00 (0000ms, 1423ms total)
T375C 002:427 JLINK_WriteReg(R7, 0x00000000)  returns 0x00 (0000ms, 1423ms total)
T375C 002:427 JLINK_WriteReg(R8, 0x00000000)  returns 0x00 (0000ms, 1423ms total)
T375C 002:427 JLINK_WriteReg(R9, 0x2000017C)  returns 0x00 (0000ms, 1423ms total)
T375C 002:427 JLINK_WriteReg(R10, 0x00000000)  returns 0x00 (0000ms, 1423ms total)
T375C 002:427 JLINK_WriteReg(R11, 0x00000000)  returns 0x00 (0000ms, 1423ms total)
T375C 002:428 JLINK_WriteReg(R12, 0x00000000)  returns 0x00 (0000ms, 1424ms total)
T375C 002:428 JLINK_WriteReg(R13, 0x20000800)  returns 0x00 (0000ms, 1424ms total)
T375C 002:428 JLINK_WriteReg(R14, 0x20000001)  returns 0x00 (0000ms, 1424ms total)
T375C 002:428 JLINK_WriteReg(R15, 0x20000082)  returns 0x00 (0000ms, 1424ms total)
T375C 002:428 JLINK_WriteReg(XPSR, 0x01000000)  returns 0x00 (0000ms, 1424ms total)
T375C 002:428 JLINK_WriteReg(MSP, 0x20000800)  returns 0x00 (0000ms, 1424ms total)
T375C 002:428 JLINK_WriteReg(PSP, 0x20000800)  returns 0x00 (0000ms, 1424ms total)
T375C 002:428 JLINK_WriteReg(CFBP, 0x00000000)  returns 0x00 (0000ms, 1424ms total)
T375C 002:428 JLINK_SetBPEx(Addr = 0x20000000, Type = 0xFFFFFFF2)  returns 0x00000006 (0000ms, 1424ms total)
T375C 002:428 JLINK_Go() -- CPU_WriteMem(4 bytes @ 0xE0002008) -- CPU_WriteMem(4 bytes @ 0xE000200C) -- CPU_WriteMem(4 bytes @ 0xE0002010) -- CPU_WriteMem(4 bytes @ 0xE0002014) -- CPU_WriteMem(4 bytes @ 0xE0002018) -- CPU_WriteMem(4 bytes @ 0xE000201C) (0010ms, 1424ms total)
T375C 002:438 JLINK_IsHalted() -- CPU_ReadMem(2 bytes @ 0x20000000)  returns TRUE (0005ms, 1434ms total)
T375C 002:443 JLINK_ReadReg(R15)  returns 0x20000000 (0001ms, 1434ms total)
T375C 002:444 JLINK_ClrBPEx(BPHandle = 0x00000006)  returns 0x00 (0000ms, 1435ms total)
T375C 002:444 JLINK_ReadReg(R0)  returns 0x00000000 (0000ms, 1435ms total)
T375C 002:504 JLINK_WriteMem(0x20000000, 0x0180 Bytes, ...) -- Data:  00 BE 0A E0 0D 78 2D 06 68 40 08 24 40 00 00 D3 ... -- CPU_WriteMem(384 bytes @ 0x20000000)  returns 0x180 (0005ms, 1435ms total)
T375C 002:510 JLINK_WriteReg(R0, 0x08000000)  returns 0x00 (0000ms, 1440ms total)
T375C 002:510 JLINK_WriteReg(R1, 0x007A1200)  returns 0x00 (0000ms, 1440ms total)
T375C 002:510 JLINK_WriteReg(R2, 0x00000002)  returns 0x00 (0000ms, 1440ms total)
T375C 002:510 JLINK_WriteReg(R3, 0x00000000)  returns 0x00 (0000ms, 1440ms total)
T375C 002:510 JLINK_WriteReg(R4, 0x00000000)  returns 0x00 (0000ms, 1440ms total)
T375C 002:510 JLINK_WriteReg(R5, 0x00000000)  returns 0x00 (0000ms, 1440ms total)
T375C 002:510 JLINK_WriteReg(R6, 0x00000000)  returns 0x00 (0000ms, 1440ms total)
T375C 002:510 JLINK_WriteReg(R7, 0x00000000)  returns 0x00 (0000ms, 1440ms total)
T375C 002:510 JLINK_WriteReg(R8, 0x00000000)  returns 0x00 (0000ms, 1440ms total)
T375C 002:510 JLINK_WriteReg(R9, 0x2000017C)  returns 0x00 (0000ms, 1440ms total)
T375C 002:510 JLINK_WriteReg(R10, 0x00000000)  returns 0x00 (0001ms, 1440ms total)
T375C 002:511 JLINK_WriteReg(R11, 0x00000000)  returns 0x00 (0000ms, 1441ms total)
T375C 002:511 JLINK_WriteReg(R12, 0x00000000)  returns 0x00 (0000ms, 1441ms total)
T375C 002:511 JLINK_WriteReg(R13, 0x20000800)  returns 0x00 (0000ms, 1441ms total)
T375C 002:511 JLINK_WriteReg(R14, 0x20000001)  returns 0x00 (0000ms, 1441ms total)
T375C 002:511 JLINK_WriteReg(R15, 0x20000054)  returns 0x00 (0000ms, 1441ms total)
T375C 002:511 JLINK_WriteReg(XPSR, 0x01000000)  returns 0x00 (0000ms, 1441ms total)
T375C 002:511 JLINK_WriteReg(MSP, 0x20000800)  returns 0x00 (0000ms, 1441ms total)
T375C 002:511 JLINK_WriteReg(PSP, 0x20000800)  returns 0x00 (0000ms, 1441ms total)
T375C 002:511 JLINK_WriteReg(CFBP, 0x00000000)  returns 0x00 (0000ms, 1441ms total)
T375C 002:511 JLINK_SetBPEx(Addr = 0x20000000, Type = 0xFFFFFFF2) -- CPU_ReadMem(2 bytes @ 0x20000000)  returns 0x00000007 (0002ms, 1441ms total)
T375C 002:513 JLINK_Go() -- CPU_WriteMem(2 bytes @ 0x20000000) -- CPU_WriteMem(4 bytes @ 0xE0002008) -- CPU_WriteMem(4 bytes @ 0xE000200C) -- CPU_WriteMem(4 bytes @ 0xE0002010) -- CPU_WriteMem(4 bytes @ 0xE0002014) -- CPU_WriteMem(4 bytes @ 0xE0002018) -- CPU_WriteMem(4 bytes @ 0xE000201C) (0010ms, 1443ms total)
T375C 002:523 JLINK_IsHalted() -- CPU_ReadMem(2 bytes @ 0x20000000)  returns TRUE (0005ms, 1453ms total)
T375C 002:528 JLINK_ReadReg(R15)  returns 0x20000000 (0001ms, 1453ms total)
T375C 002:529 JLINK_ClrBPEx(BPHandle = 0x00000007)  returns 0x00 (0000ms, 1454ms total)
T375C 002:529 JLINK_ReadReg(R0)  returns 0x00000000 (0000ms, 1454ms total)
T375C 002:530 JLINK_WriteMem(0x20000180, 0x0400 Bytes, ...) -- Data:  F0 18 00 20 9D 01 00 08 2B 44 00 08 0F 44 00 08 ... -- CPU_WriteMem(1024 bytes @ 0x20000180)  returns 0x400 (0013ms, 1454ms total)
T375C 002:543 JLINK_WriteReg(R0, 0x08000000)  returns 0x00 (0000ms, 1467ms total)
T375C 002:543 JLINK_WriteReg(R1, 0x00000400)  returns 0x00 (0000ms, 1467ms total)
T375C 002:543 JLINK_WriteReg(R2, 0x20000180)  returns 0x00 (0000ms, 1467ms total)
T375C 002:543 JLINK_WriteReg(R3, 0x00000000)  returns 0x00 (0000ms, 1467ms total)
T375C 002:543 JLINK_WriteReg(R4, 0x00000000)  returns 0x00 (0000ms, 1467ms total)
T375C 002:543 JLINK_WriteReg(R5, 0x00000000)  returns 0x00 (0000ms, 1467ms total)
T375C 002:543 JLINK_WriteReg(R6, 0x00000000)  returns 0x00 (0000ms, 1467ms total)
T375C 002:543 JLINK_WriteReg(R7, 0x00000000)  returns 0x00 (0000ms, 1467ms total)
T375C 002:543 JLINK_WriteReg(R8, 0x00000000)  returns 0x00 (0001ms, 1467ms total)
T375C 002:544 JLINK_WriteReg(R9, 0x2000017C)  returns 0x00 (0000ms, 1468ms total)
T375C 002:544 JLINK_WriteReg(R10, 0x00000000)  returns 0x00 (0000ms, 1468ms total)
T375C 002:544 JLINK_WriteReg(R11, 0x00000000)  returns 0x00 (0000ms, 1468ms total)
T375C 002:544 JLINK_WriteReg(R12, 0x00000000)  returns 0x00 (0000ms, 1468ms total)
T375C 002:544 JLINK_WriteReg(R13, 0x20000800)  returns 0x00 (0000ms, 1468ms total)
T375C 002:544 JLINK_WriteReg(R14, 0x20000001)  returns 0x00 (0000ms, 1468ms total)
T375C 002:544 JLINK_WriteReg(R15, 0x20000108)  returns 0x00 (0000ms, 1468ms total)
T375C 002:544 JLINK_WriteReg(XPSR, 0x01000000)  returns 0x00 (0000ms, 1468ms total)
T375C 002:544 JLINK_WriteReg(MSP, 0x20000800)  returns 0x00 (0000ms, 1468ms total)
T375C 002:544 JLINK_WriteReg(PSP, 0x20000800)  returns 0x00 (0000ms, 1468ms total)
T375C 002:544 JLINK_WriteReg(CFBP, 0x00000000)  returns 0x00 (0000ms, 1468ms total)
T375C 002:545 JLINK_SetBPEx(Addr = 0x20000000, Type = 0xFFFFFFF2)  returns 0x00000008 (0000ms, 1469ms total)
T375C 002:545 JLINK_Go() -- CPU_WriteMem(4 bytes @ 0xE0002008) -- CPU_WriteMem(4 bytes @ 0xE000200C) -- CPU_WriteMem(4 bytes @ 0xE0002010) -- CPU_WriteMem(4 bytes @ 0xE0002014) -- CPU_WriteMem(4 bytes @ 0xE0002018) -- CPU_WriteMem(4 bytes @ 0xE000201C) (0009ms, 1469ms total)
T375C 002:554 JLINK_IsHalted()  returns FALSE (0002ms, 1478ms total)
T375C 002:606 JLINK_IsHalted() -- CPU_ReadMem(2 bytes @ 0x20000000)  returns TRUE (0005ms, 1478ms total)
T375C 002:611 JLINK_ReadReg(R15)  returns 0x20000000 (0000ms, 1478ms total)
T375C 002:611 JLINK_ClrBPEx(BPHandle = 0x00000008)  returns 0x00 (0000ms, 1478ms total)
T375C 002:611 JLINK_ReadReg(R0)  returns 0x00000000 (0000ms, 1478ms total)
T375C 002:613 JLINK_WriteMem(0x20000180, 0x0400 Bytes, ...) -- Data:  04 78 04 F0 1F 05 01 24 AC 40 05 78 6D 11 4F F0 ... -- CPU_WriteMem(1024 bytes @ 0x20000180)  returns 0x400 (0013ms, 1478ms total)
T375C 002:626 JLINK_WriteReg(R0, 0x08000400)  returns 0x00 (0000ms, 1491ms total)
T375C 002:626 JLINK_WriteReg(R1, 0x00000400)  returns 0x00 (0000ms, 1491ms total)
T375C 002:626 JLINK_WriteReg(R2, 0x20000180)  returns 0x00 (0000ms, 1491ms total)
T375C 002:626 JLINK_WriteReg(R3, 0x00000000)  returns 0x00 (0000ms, 1491ms total)
T375C 002:626 JLINK_WriteReg(R4, 0x00000000)  returns 0x00 (0000ms, 1491ms total)
T375C 002:626 JLINK_WriteReg(R5, 0x00000000)  returns 0x00 (0000ms, 1491ms total)
T375C 002:626 JLINK_WriteReg(R6, 0x00000000)  returns 0x00 (0000ms, 1491ms total)
T375C 002:626 JLINK_WriteReg(R7, 0x00000000)  returns 0x00 (0000ms, 1491ms total)
T375C 002:626 JLINK_WriteReg(R8, 0x00000000)  returns 0x00 (0001ms, 1491ms total)
T375C 002:627 JLINK_WriteReg(R9, 0x2000017C)  returns 0x00 (0000ms, 1492ms total)
T375C 002:627 JLINK_WriteReg(R10, 0x00000000)  returns 0x00 (0000ms, 1492ms total)
T375C 002:627 JLINK_WriteReg(R11, 0x00000000)  returns 0x00 (0000ms, 1492ms total)
T375C 002:627 JLINK_WriteReg(R12, 0x00000000)  returns 0x00 (0000ms, 1492ms total)
T375C 002:627 JLINK_WriteReg(R13, 0x20000800)  returns 0x00 (0000ms, 1492ms total)
T375C 002:627 JLINK_WriteReg(R14, 0x20000001)  returns 0x00 (0000ms, 1492ms total)
T375C 002:627 JLINK_WriteReg(R15, 0x20000108)  returns 0x00 (0000ms, 1492ms total)
T375C 002:627 JLINK_WriteReg(XPSR, 0x01000000)  returns 0x00 (0000ms, 1492ms total)
T375C 002:627 JLINK_WriteReg(MSP, 0x20000800)  returns 0x00 (0000ms, 1492ms total)
T375C 002:627 JLINK_WriteReg(PSP, 0x20000800)  returns 0x00 (0000ms, 1492ms total)
T375C 002:627 JLINK_WriteReg(CFBP, 0x00000000)  returns 0x00 (0001ms, 1492ms total)
T375C 002:628 JLINK_SetBPEx(Addr = 0x20000000, Type = 0xFFFFFFF2)  returns 0x00000009 (0000ms, 1493ms total)
T375C 002:628 JLINK_Go() -- CPU_WriteMem(4 bytes @ 0xE0002008) -- CPU_WriteMem(4 bytes @ 0xE000200C) -- CPU_WriteMem(4 bytes @ 0xE0002010) -- CPU_WriteMem(4 bytes @ 0xE0002014) -- CPU_WriteMem(4 bytes @ 0xE0002018) -- CPU_WriteMem(4 bytes @ 0xE000201C) (0009ms, 1493ms total)
T375C 002:637 JLINK_IsHalted()  returns FALSE (0001ms, 1502ms total)
T375C 002:688 JLINK_IsHalted() -- CPU_ReadMem(2 bytes @ 0x20000000)  returns TRUE (0005ms, 1502ms total)
T375C 002:693 JLINK_ReadReg(R15)  returns 0x20000000 (0000ms, 1502ms total)
T375C 002:693 JLINK_ClrBPEx(BPHandle = 0x00000009)  returns 0x00 (0000ms, 1502ms total)
T375C 002:693 JLINK_ReadReg(R0)  returns 0x00000000 (0000ms, 1502ms total)
T375C 002:695 JLINK_WriteMem(0x20000180, 0x0400 Bytes, ...) -- Data:  10 60 70 47 01 46 00 20 20 4A 8C 32 10 68 20 F4 ... -- CPU_WriteMem(1024 bytes @ 0x20000180)  returns 0x400 (0013ms, 1502ms total)
T375C 002:708 JLINK_WriteReg(R0, 0x08000800)  returns 0x00 (0000ms, 1515ms total)
T375C 002:708 JLINK_WriteReg(R1, 0x00000400)  returns 0x00 (0000ms, 1515ms total)
T375C 002:708 JLINK_WriteReg(R2, 0x20000180)  returns 0x00 (0000ms, 1515ms total)
T375C 002:708 JLINK_WriteReg(R3, 0x00000000)  returns 0x00 (0000ms, 1515ms total)
T375C 002:708 JLINK_WriteReg(R4, 0x00000000)  returns 0x00 (0000ms, 1515ms total)
T375C 002:708 JLINK_WriteReg(R5, 0x00000000)  returns 0x00 (0000ms, 1515ms total)
T375C 002:708 JLINK_WriteReg(R6, 0x00000000)  returns 0x00 (0000ms, 1515ms total)
T375C 002:708 JLINK_WriteReg(R7, 0x00000000)  returns 0x00 (0000ms, 1515ms total)
T375C 002:708 JLINK_WriteReg(R8, 0x00000000)  returns 0x00 (0001ms, 1515ms total)
T375C 002:709 JLINK_WriteReg(R9, 0x2000017C)  returns 0x00 (0000ms, 1516ms total)
T375C 002:709 JLINK_WriteReg(R10, 0x00000000)  returns 0x00 (0000ms, 1516ms total)
T375C 002:709 JLINK_WriteReg(R11, 0x00000000)  returns 0x00 (0000ms, 1516ms total)
T375C 002:709 JLINK_WriteReg(R12, 0x00000000)  returns 0x00 (0000ms, 1516ms total)
T375C 002:709 JLINK_WriteReg(R13, 0x20000800)  returns 0x00 (0000ms, 1516ms total)
T375C 002:709 JLINK_WriteReg(R14, 0x20000001)  returns 0x00 (0000ms, 1516ms total)
T375C 002:709 JLINK_WriteReg(R15, 0x20000108)  returns 0x00 (0000ms, 1516ms total)
T375C 002:709 JLINK_WriteReg(XPSR, 0x01000000)  returns 0x00 (0000ms, 1516ms total)
T375C 002:709 JLINK_WriteReg(MSP, 0x20000800)  returns 0x00 (0000ms, 1516ms total)
T375C 002:709 JLINK_WriteReg(PSP, 0x20000800)  returns 0x00 (0000ms, 1516ms total)
T375C 002:709 JLINK_WriteReg(CFBP, 0x00000000)  returns 0x00 (0001ms, 1516ms total)
T375C 002:710 JLINK_SetBPEx(Addr = 0x20000000, Type = 0xFFFFFFF2)  returns 0x0000000A (0000ms, 1517ms total)
T375C 002:710 JLINK_Go() -- CPU_WriteMem(4 bytes @ 0xE0002008) -- CPU_WriteMem(4 bytes @ 0xE000200C) -- CPU_WriteMem(4 bytes @ 0xE0002010) -- CPU_WriteMem(4 bytes @ 0xE0002014) -- CPU_WriteMem(4 bytes @ 0xE0002018) -- CPU_WriteMem(4 bytes @ 0xE000201C) (0009ms, 1517ms total)
T375C 002:719 JLINK_IsHalted()  returns FALSE (0001ms, 1526ms total)
T375C 002:770 JLINK_IsHalted() -- CPU_ReadMem(2 bytes @ 0x20000000)  returns TRUE (0005ms, 1526ms total)
T375C 002:775 JLINK_ReadReg(R15)  returns 0x20000000 (0000ms, 1526ms total)
T375C 002:775 JLINK_ClrBPEx(BPHandle = 0x0000000A)  returns 0x00 (0000ms, 1526ms total)
T375C 002:775 JLINK_ReadReg(R0)  returns 0x00000000 (0000ms, 1526ms total)
T375C 002:777 JLINK_WriteMem(0x20000180, 0x0400 Bytes, ...) -- Data:  4F F0 3D 51 98 4A 12 1F 11 60 70 47 10 B5 00 22 ... -- CPU_WriteMem(1024 bytes @ 0x20000180)  returns 0x400 (0013ms, 1526ms total)
T375C 002:790 JLINK_WriteReg(R0, 0x08000C00)  returns 0x00 (0000ms, 1539ms total)
T375C 002:790 JLINK_WriteReg(R1, 0x00000400)  returns 0x00 (0000ms, 1539ms total)
T375C 002:790 JLINK_WriteReg(R2, 0x20000180)  returns 0x00 (0000ms, 1539ms total)
T375C 002:790 JLINK_WriteReg(R3, 0x00000000)  returns 0x00 (0000ms, 1539ms total)
T375C 002:790 JLINK_WriteReg(R4, 0x00000000)  returns 0x00 (0000ms, 1539ms total)
T375C 002:790 JLINK_WriteReg(R5, 0x00000000)  returns 0x00 (0000ms, 1539ms total)
T375C 002:790 JLINK_WriteReg(R6, 0x00000000)  returns 0x00 (0001ms, 1539ms total)
T375C 002:791 JLINK_WriteReg(R7, 0x00000000)  returns 0x00 (0000ms, 1540ms total)
T375C 002:791 JLINK_WriteReg(R8, 0x00000000)  returns 0x00 (0000ms, 1540ms total)
T375C 002:791 JLINK_WriteReg(R9, 0x2000017C)  returns 0x00 (0000ms, 1540ms total)
T375C 002:791 JLINK_WriteReg(R10, 0x00000000)  returns 0x00 (0000ms, 1540ms total)
T375C 002:791 JLINK_WriteReg(R11, 0x00000000)  returns 0x00 (0000ms, 1540ms total)
T375C 002:791 JLINK_WriteReg(R12, 0x00000000)  returns 0x00 (0000ms, 1540ms total)
T375C 002:791 JLINK_WriteReg(R13, 0x20000800)  returns 0x00 (0000ms, 1540ms total)
T375C 002:791 JLINK_WriteReg(R14, 0x20000001)  returns 0x00 (0000ms, 1540ms total)
T375C 002:791 JLINK_WriteReg(R15, 0x20000108)  returns 0x00 (0000ms, 1540ms total)
T375C 002:791 JLINK_WriteReg(XPSR, 0x01000000)  returns 0x00 (0000ms, 1540ms total)
T375C 002:791 JLINK_WriteReg(MSP, 0x20000800)  returns 0x00 (0001ms, 1540ms total)
T375C 002:792 JLINK_WriteReg(PSP, 0x20000800)  returns 0x00 (0000ms, 1541ms total)
T375C 002:792 JLINK_WriteReg(CFBP, 0x00000000)  returns 0x00 (0000ms, 1541ms total)
T375C 002:792 JLINK_SetBPEx(Addr = 0x20000000, Type = 0xFFFFFFF2)  returns 0x0000000B (0000ms, 1541ms total)
T375C 002:792 JLINK_Go() -- CPU_WriteMem(4 bytes @ 0xE0002008) -- CPU_WriteMem(4 bytes @ 0xE000200C) -- CPU_WriteMem(4 bytes @ 0xE0002010) -- CPU_WriteMem(4 bytes @ 0xE0002014) -- CPU_WriteMem(4 bytes @ 0xE0002018) -- CPU_WriteMem(4 bytes @ 0xE000201C) (0009ms, 1541ms total)
T375C 002:802 JLINK_IsHalted()  returns FALSE (0001ms, 1551ms total)
T375C 002:853 JLINK_IsHalted() -- CPU_ReadMem(2 bytes @ 0x20000000)  returns TRUE (0005ms, 1551ms total)
T375C 002:858 JLINK_ReadReg(R15)  returns 0x20000000 (0000ms, 1551ms total)
T375C 002:858 JLINK_ClrBPEx(BPHandle = 0x0000000B)  returns 0x00 (0000ms, 1551ms total)
T375C 002:858 JLINK_ReadReg(R0)  returns 0x00000000 (0000ms, 1551ms total)
T375C 002:860 JLINK_WriteMem(0x20000180, 0x0400 Bytes, ...) -- Data:  D4 79 4D 00 AC 40 C5 68 2C 43 C4 60 49 1C 10 29 ... -- CPU_WriteMem(1024 bytes @ 0x20000180)  returns 0x400 (0013ms, 1551ms total)
T375C 002:873 JLINK_WriteReg(R0, 0x08001000)  returns 0x00 (0000ms, 1564ms total)
T375C 002:873 JLINK_WriteReg(R1, 0x00000400)  returns 0x00 (0000ms, 1564ms total)
T375C 002:873 JLINK_WriteReg(R2, 0x20000180)  returns 0x00 (0000ms, 1564ms total)
T375C 002:873 JLINK_WriteReg(R3, 0x00000000)  returns 0x00 (0000ms, 1564ms total)
T375C 002:873 JLINK_WriteReg(R4, 0x00000000)  returns 0x00 (0000ms, 1564ms total)
T375C 002:873 JLINK_WriteReg(R5, 0x00000000)  returns 0x00 (0000ms, 1564ms total)
T375C 002:873 JLINK_WriteReg(R6, 0x00000000)  returns 0x00 (0000ms, 1564ms total)
T375C 002:873 JLINK_WriteReg(R7, 0x00000000)  returns 0x00 (0000ms, 1564ms total)
T375C 002:873 JLINK_WriteReg(R8, 0x00000000)  returns 0x00 (0000ms, 1564ms total)
T375C 002:873 JLINK_WriteReg(R9, 0x2000017C)  returns 0x00 (0001ms, 1564ms total)
T375C 002:874 JLINK_WriteReg(R10, 0x00000000)  returns 0x00 (0000ms, 1565ms total)
T375C 002:874 JLINK_WriteReg(R11, 0x00000000)  returns 0x00 (0000ms, 1565ms total)
T375C 002:874 JLINK_WriteReg(R12, 0x00000000)  returns 0x00 (0000ms, 1565ms total)
T375C 002:874 JLINK_WriteReg(R13, 0x20000800)  returns 0x00 (0000ms, 1565ms total)
T375C 002:874 JLINK_WriteReg(R14, 0x20000001)  returns 0x00 (0000ms, 1565ms total)
T375C 002:874 JLINK_WriteReg(R15, 0x20000108)  returns 0x00 (0000ms, 1565ms total)
T375C 002:874 JLINK_WriteReg(XPSR, 0x01000000)  returns 0x00 (0000ms, 1565ms total)
T375C 002:874 JLINK_WriteReg(MSP, 0x20000800)  returns 0x00 (0000ms, 1565ms total)
T375C 002:874 JLINK_WriteReg(PSP, 0x20000800)  returns 0x00 (0000ms, 1565ms total)
T375C 002:874 JLINK_WriteReg(CFBP, 0x00000000)  returns 0x00 (0000ms, 1565ms total)
T375C 002:874 JLINK_SetBPEx(Addr = 0x20000000, Type = 0xFFFFFFF2)  returns 0x0000000C (0001ms, 1565ms total)
T375C 002:875 JLINK_Go() -- CPU_WriteMem(4 bytes @ 0xE0002008) -- CPU_WriteMem(4 bytes @ 0xE000200C) -- CPU_WriteMem(4 bytes @ 0xE0002010) -- CPU_WriteMem(4 bytes @ 0xE0002014) -- CPU_WriteMem(4 bytes @ 0xE0002018) -- CPU_WriteMem(4 bytes @ 0xE000201C) (0010ms, 1566ms total)
T375C 002:885 JLINK_IsHalted()  returns FALSE (0001ms, 1576ms total)
T375C 002:936 JLINK_IsHalted() -- CPU_ReadMem(2 bytes @ 0x20000000)  returns TRUE (0005ms, 1576ms total)
T375C 002:941 JLINK_ReadReg(R15)  returns 0x20000000 (0000ms, 1576ms total)
T375C 002:941 JLINK_ClrBPEx(BPHandle = 0x0000000C)  returns 0x00 (0000ms, 1576ms total)
T375C 002:941 JLINK_ReadReg(R0)  returns 0x00000000 (0000ms, 1576ms total)
T375C 002:943 JLINK_WriteMem(0x20000180, 0x0400 Bytes, ...) -- Data:  4F F6 EF 73 1A 40 82 82 70 47 82 8A 4F F6 FB 73 ... -- CPU_WriteMem(1024 bytes @ 0x20000180)  returns 0x400 (0013ms, 1576ms total)
T375C 002:956 JLINK_WriteReg(R0, 0x08001400)  returns 0x00 (0000ms, 1589ms total)
T375C 002:956 JLINK_WriteReg(R1, 0x00000400)  returns 0x00 (0000ms, 1589ms total)
T375C 002:956 JLINK_WriteReg(R2, 0x20000180)  returns 0x00 (0000ms, 1589ms total)
T375C 002:956 JLINK_WriteReg(R3, 0x00000000)  returns 0x00 (0000ms, 1589ms total)
T375C 002:956 JLINK_WriteReg(R4, 0x00000000)  returns 0x00 (0000ms, 1589ms total)
T375C 002:956 JLINK_WriteReg(R5, 0x00000000)  returns 0x00 (0000ms, 1589ms total)
T375C 002:956 JLINK_WriteReg(R6, 0x00000000)  returns 0x00 (0000ms, 1589ms total)
T375C 002:956 JLINK_WriteReg(R7, 0x00000000)  returns 0x00 (0000ms, 1589ms total)
T375C 002:956 JLINK_WriteReg(R8, 0x00000000)  returns 0x00 (0000ms, 1589ms total)
T375C 002:956 JLINK_WriteReg(R9, 0x2000017C)  returns 0x00 (0001ms, 1589ms total)
T375C 002:957 JLINK_WriteReg(R10, 0x00000000)  returns 0x00 (0000ms, 1590ms total)
T375C 002:957 JLINK_WriteReg(R11, 0x00000000)  returns 0x00 (0000ms, 1590ms total)
T375C 002:957 JLINK_WriteReg(R12, 0x00000000)  returns 0x00 (0000ms, 1590ms total)
T375C 002:957 JLINK_WriteReg(R13, 0x20000800)  returns 0x00 (0000ms, 1590ms total)
T375C 002:957 JLINK_WriteReg(R14, 0x20000001)  returns 0x00 (0000ms, 1590ms total)
T375C 002:957 JLINK_WriteReg(R15, 0x20000108)  returns 0x00 (0000ms, 1590ms total)
T375C 002:957 JLINK_WriteReg(XPSR, 0x01000000)  returns 0x00 (0000ms, 1590ms total)
T375C 002:957 JLINK_WriteReg(MSP, 0x20000800)  returns 0x00 (0000ms, 1590ms total)
T375C 002:957 JLINK_WriteReg(PSP, 0x20000800)  returns 0x00 (0000ms, 1590ms total)
T375C 002:957 JLINK_WriteReg(CFBP, 0x00000000)  returns 0x00 (0000ms, 1590ms total)
T375C 002:957 JLINK_SetBPEx(Addr = 0x20000000, Type = 0xFFFFFFF2)  returns 0x0000000D (0001ms, 1590ms total)
T375C 002:958 JLINK_Go() -- CPU_WriteMem(4 bytes @ 0xE0002008) -- CPU_WriteMem(4 bytes @ 0xE000200C) -- CPU_WriteMem(4 bytes @ 0xE0002010) -- CPU_WriteMem(4 bytes @ 0xE0002014) -- CPU_WriteMem(4 bytes @ 0xE0002018) -- CPU_WriteMem(4 bytes @ 0xE000201C) (0009ms, 1591ms total)
T375C 002:967 JLINK_IsHalted()  returns FALSE (0001ms, 1600ms total)
T375C 003:018 JLINK_IsHalted() -- CPU_ReadMem(2 bytes @ 0x20000000)  returns TRUE (0005ms, 1600ms total)
T375C 003:023 JLINK_ReadReg(R15)  returns 0x20000000 (0000ms, 1600ms total)
T375C 003:023 JLINK_ClrBPEx(BPHandle = 0x0000000D)  returns 0x00 (0000ms, 1600ms total)
T375C 003:023 JLINK_ReadReg(R0)  returns 0x00000000 (0000ms, 1600ms total)
T375C 003:025 JLINK_WriteMem(0x20000180, 0x0400 Bytes, ...) -- Data:  0C EA 04 0C AC 1E 0C EA 04 0C 0C 88 44 EA 0C 0C ... -- CPU_WriteMem(1024 bytes @ 0x20000180)  returns 0x400 (0013ms, 1600ms total)
T375C 003:038 JLINK_WriteReg(R0, 0x08001800)  returns 0x00 (0000ms, 1613ms total)
T375C 003:038 JLINK_WriteReg(R1, 0x00000400)  returns 0x00 (0000ms, 1613ms total)
T375C 003:038 JLINK_WriteReg(R2, 0x20000180)  returns 0x00 (0000ms, 1613ms total)
T375C 003:038 JLINK_WriteReg(R3, 0x00000000)  returns 0x00 (0000ms, 1613ms total)
T375C 003:038 JLINK_WriteReg(R4, 0x00000000)  returns 0x00 (0000ms, 1613ms total)
T375C 003:038 JLINK_WriteReg(R5, 0x00000000)  returns 0x00 (0000ms, 1613ms total)
T375C 003:038 JLINK_WriteReg(R6, 0x00000000)  returns 0x00 (0000ms, 1613ms total)
T375C 003:038 JLINK_WriteReg(R7, 0x00000000)  returns 0x00 (0000ms, 1613ms total)
T375C 003:038 JLINK_WriteReg(R8, 0x00000000)  returns 0x00 (0001ms, 1613ms total)
T375C 003:039 JLINK_WriteReg(R9, 0x2000017C)  returns 0x00 (0000ms, 1614ms total)
T375C 003:039 JLINK_WriteReg(R10, 0x00000000)  returns 0x00 (0000ms, 1614ms total)
T375C 003:039 JLINK_WriteReg(R11, 0x00000000)  returns 0x00 (0000ms, 1614ms total)
T375C 003:039 JLINK_WriteReg(R12, 0x00000000)  returns 0x00 (0000ms, 1614ms total)
T375C 003:039 JLINK_WriteReg(R13, 0x20000800)  returns 0x00 (0000ms, 1614ms total)
T375C 003:039 JLINK_WriteReg(R14, 0x20000001)  returns 0x00 (0000ms, 1614ms total)
T375C 003:039 JLINK_WriteReg(R15, 0x20000108)  returns 0x00 (0000ms, 1614ms total)
T375C 003:039 JLINK_WriteReg(XPSR, 0x01000000)  returns 0x00 (0000ms, 1614ms total)
T375C 003:039 JLINK_WriteReg(MSP, 0x20000800)  returns 0x00 (0000ms, 1614ms total)
T375C 003:039 JLINK_WriteReg(PSP, 0x20000800)  returns 0x00 (0000ms, 1614ms total)
T375C 003:039 JLINK_WriteReg(CFBP, 0x00000000)  returns 0x00 (0001ms, 1614ms total)
T375C 003:040 JLINK_SetBPEx(Addr = 0x20000000, Type = 0xFFFFFFF2)  returns 0x0000000E (0000ms, 1615ms total)
T375C 003:040 JLINK_Go() -- CPU_WriteMem(4 bytes @ 0xE0002008) -- CPU_WriteMem(4 bytes @ 0xE000200C) -- CPU_WriteMem(4 bytes @ 0xE0002010) -- CPU_WriteMem(4 bytes @ 0xE0002014) -- CPU_WriteMem(4 bytes @ 0xE0002018) -- CPU_WriteMem(4 bytes @ 0xE000201C) (0009ms, 1615ms total)
T375C 003:049 JLINK_IsHalted()  returns FALSE (0001ms, 1624ms total)
T375C 003:100 JLINK_IsHalted() -- CPU_ReadMem(2 bytes @ 0x20000000)  returns TRUE (0005ms, 1624ms total)
T375C 003:105 JLINK_ReadReg(R15)  returns 0x20000000 (0000ms, 1624ms total)
T375C 003:105 JLINK_ClrBPEx(BPHandle = 0x0000000E)  returns 0x00 (0000ms, 1624ms total)
T375C 003:105 JLINK_ReadReg(R0)  returns 0x00000000 (0000ms, 1624ms total)
T375C 003:107 JLINK_WriteMem(0x20000180, 0x0400 Bytes, ...) -- Data:  11 43 01 84 70 47 0A 46 00 21 01 8C 4F F6 F7 73 ... -- CPU_WriteMem(1024 bytes @ 0x20000180)  returns 0x400 (0013ms, 1624ms total)
T375C 003:120 JLINK_WriteReg(R0, 0x08001C00)  returns 0x00 (0000ms, 1637ms total)
T375C 003:120 JLINK_WriteReg(R1, 0x00000400)  returns 0x00 (0000ms, 1637ms total)
T375C 003:120 JLINK_WriteReg(R2, 0x20000180)  returns 0x00 (0000ms, 1637ms total)
T375C 003:120 JLINK_WriteReg(R3, 0x00000000)  returns 0x00 (0000ms, 1637ms total)
T375C 003:120 JLINK_WriteReg(R4, 0x00000000)  returns 0x00 (0000ms, 1637ms total)
T375C 003:120 JLINK_WriteReg(R5, 0x00000000)  returns 0x00 (0000ms, 1637ms total)
T375C 003:120 JLINK_WriteReg(R6, 0x00000000)  returns 0x00 (0000ms, 1637ms total)
T375C 003:120 JLINK_WriteReg(R7, 0x00000000)  returns 0x00 (0000ms, 1637ms total)
T375C 003:120 JLINK_WriteReg(R8, 0x00000000)  returns 0x00 (0000ms, 1637ms total)
T375C 003:120 JLINK_WriteReg(R9, 0x2000017C)  returns 0x00 (0001ms, 1637ms total)
T375C 003:121 JLINK_WriteReg(R10, 0x00000000)  returns 0x00 (0000ms, 1638ms total)
T375C 003:121 JLINK_WriteReg(R11, 0x00000000)  returns 0x00 (0000ms, 1638ms total)
T375C 003:121 JLINK_WriteReg(R12, 0x00000000)  returns 0x00 (0000ms, 1638ms total)
T375C 003:121 JLINK_WriteReg(R13, 0x20000800)  returns 0x00 (0000ms, 1638ms total)
T375C 003:121 JLINK_WriteReg(R14, 0x20000001)  returns 0x00 (0000ms, 1638ms total)
T375C 003:121 JLINK_WriteReg(R15, 0x20000108)  returns 0x00 (0000ms, 1638ms total)
T375C 003:121 JLINK_WriteReg(XPSR, 0x01000000)  returns 0x00 (0000ms, 1638ms total)
T375C 003:121 JLINK_WriteReg(MSP, 0x20000800)  returns 0x00 (0000ms, 1638ms total)
T375C 003:121 JLINK_WriteReg(PSP, 0x20000800)  returns 0x00 (0000ms, 1638ms total)
T375C 003:121 JLINK_WriteReg(CFBP, 0x00000000)  returns 0x00 (0000ms, 1638ms total)
T375C 003:121 JLINK_SetBPEx(Addr = 0x20000000, Type = 0xFFFFFFF2)  returns 0x0000000F (0001ms, 1638ms total)
T375C 003:122 JLINK_Go() -- CPU_WriteMem(4 bytes @ 0xE0002008) -- CPU_WriteMem(4 bytes @ 0xE000200C) -- CPU_WriteMem(4 bytes @ 0xE0002010) -- CPU_WriteMem(4 bytes @ 0xE0002014) -- CPU_WriteMem(4 bytes @ 0xE0002018) -- CPU_WriteMem(4 bytes @ 0xE000201C) (0010ms, 1639ms total)
T375C 003:132 JLINK_IsHalted()  returns FALSE (0001ms, 1649ms total)
T375C 003:183 JLINK_IsHalted() -- CPU_ReadMem(2 bytes @ 0x20000000)  returns TRUE (0005ms, 1649ms total)
T375C 003:188 JLINK_ReadReg(R15)  returns 0x20000000 (0000ms, 1649ms total)
T375C 003:188 JLINK_ClrBPEx(BPHandle = 0x0000000F)  returns 0x00 (0000ms, 1649ms total)
T375C 003:188 JLINK_ReadReg(R0)  returns 0x00000000 (0000ms, 1649ms total)
T375C 003:190 JLINK_WriteMem(0x20000180, 0x0400 Bytes, ...) -- Data:  04 EA 01 0C 23 B1 BC F1 00 0F 01 D0 01 20 00 E0 ... -- CPU_WriteMem(1024 bytes @ 0x20000180)  returns 0x400 (0013ms, 1649ms total)
T375C 003:203 JLINK_WriteReg(R0, 0x08002000)  returns 0x00 (0000ms, 1662ms total)
T375C 003:203 JLINK_WriteReg(R1, 0x00000400)  returns 0x00 (0000ms, 1662ms total)
T375C 003:203 JLINK_WriteReg(R2, 0x20000180)  returns 0x00 (0000ms, 1662ms total)
T375C 003:203 JLINK_WriteReg(R3, 0x00000000)  returns 0x00 (0000ms, 1662ms total)
T375C 003:203 JLINK_WriteReg(R4, 0x00000000)  returns 0x00 (0000ms, 1662ms total)
T375C 003:203 JLINK_WriteReg(R5, 0x00000000)  returns 0x00 (0000ms, 1662ms total)
T375C 003:203 JLINK_WriteReg(R6, 0x00000000)  returns 0x00 (0000ms, 1662ms total)
T375C 003:203 JLINK_WriteReg(R7, 0x00000000)  returns 0x00 (0000ms, 1662ms total)
T375C 003:203 JLINK_WriteReg(R8, 0x00000000)  returns 0x00 (0000ms, 1662ms total)
T375C 003:203 JLINK_WriteReg(R9, 0x2000017C)  returns 0x00 (0001ms, 1662ms total)
T375C 003:204 JLINK_WriteReg(R10, 0x00000000)  returns 0x00 (0000ms, 1663ms total)
T375C 003:204 JLINK_WriteReg(R11, 0x00000000)  returns 0x00 (0000ms, 1663ms total)
T375C 003:204 JLINK_WriteReg(R12, 0x00000000)  returns 0x00 (0000ms, 1663ms total)
T375C 003:204 JLINK_WriteReg(R13, 0x20000800)  returns 0x00 (0000ms, 1663ms total)
T375C 003:204 JLINK_WriteReg(R14, 0x20000001)  returns 0x00 (0000ms, 1663ms total)
T375C 003:204 JLINK_WriteReg(R15, 0x20000108)  returns 0x00 (0000ms, 1663ms total)
T375C 003:204 JLINK_WriteReg(XPSR, 0x01000000)  returns 0x00 (0000ms, 1663ms total)
T375C 003:204 JLINK_WriteReg(MSP, 0x20000800)  returns 0x00 (0000ms, 1663ms total)
T375C 003:204 JLINK_WriteReg(PSP, 0x20000800)  returns 0x00 (0000ms, 1663ms total)
T375C 003:204 JLINK_WriteReg(CFBP, 0x00000000)  returns 0x00 (0000ms, 1663ms total)
T375C 003:204 JLINK_SetBPEx(Addr = 0x20000000, Type = 0xFFFFFFF2)  returns 0x00000010 (0000ms, 1663ms total)
T375C 003:205 JLINK_Go() -- CPU_WriteMem(4 bytes @ 0xE0002008) -- CPU_WriteMem(4 bytes @ 0xE000200C) -- CPU_WriteMem(4 bytes @ 0xE0002010) -- CPU_WriteMem(4 bytes @ 0xE0002014) -- CPU_WriteMem(4 bytes @ 0xE0002018) -- CPU_WriteMem(4 bytes @ 0xE000201C) (0008ms, 1663ms total)
T375C 003:214 JLINK_IsHalted()  returns FALSE (0001ms, 1672ms total)
T375C 003:265 JLINK_IsHalted() -- CPU_ReadMem(2 bytes @ 0x20000000)  returns TRUE (0005ms, 1672ms total)
T375C 003:270 JLINK_ReadReg(R15)  returns 0x20000000 (0000ms, 1672ms total)
T375C 003:270 JLINK_ClrBPEx(BPHandle = 0x00000010)  returns 0x00 (0000ms, 1672ms total)
T375C 003:270 JLINK_ReadReg(R0)  returns 0x00000000 (0000ms, 1672ms total)
T375C 003:271 JLINK_WriteMem(0x20000180, 0x0400 Bytes, ...) -- Data:  41 81 81 81 C1 81 07 21 01 82 70 47 00 21 01 80 ... -- CPU_WriteMem(1024 bytes @ 0x20000180)  returns 0x400 (0013ms, 1672ms total)
T375C 003:285 JLINK_WriteReg(R0, 0x08002400)  returns 0x00 (0000ms, 1686ms total)
T375C 003:285 JLINK_WriteReg(R1, 0x00000400)  returns 0x00 (0000ms, 1686ms total)
T375C 003:285 JLINK_WriteReg(R2, 0x20000180)  returns 0x00 (0000ms, 1686ms total)
T375C 003:285 JLINK_WriteReg(R3, 0x00000000)  returns 0x00 (0000ms, 1686ms total)
T375C 003:285 JLINK_WriteReg(R4, 0x00000000)  returns 0x00 (0000ms, 1686ms total)
T375C 003:285 JLINK_WriteReg(R5, 0x00000000)  returns 0x00 (0000ms, 1686ms total)
T375C 003:285 JLINK_WriteReg(R6, 0x00000000)  returns 0x00 (0000ms, 1686ms total)
T375C 003:285 JLINK_WriteReg(R7, 0x00000000)  returns 0x00 (0000ms, 1686ms total)
